
**** 06/29/13 10:50:42 ****** PSpice Lite (October 2012) ****** ID# 10813 ****

 ** Profile: "Fig2_19-diode"  [ C:\Users\jbaker\Desktop\PSpice_CMOSedu\Chap2_PSpice\Fig2_19\Fig2_19-pspicefiles\Fig2_19\diode.sim ] 


 ****     CIRCUIT DESCRIPTION


******************************************************************************




** Creating circuit file "diode.cir" 
** WARNING: THIS AUTOMATICALLY GENERATED FILE MAY BE OVERWRITTEN BY SUBSEQUENT SIMULATIONS

*Libraries: 
* Profile Libraries :
* Local Libraries :
.LIB "../../../Fig2_19-pspicefiles/Fig2_19.lib" 
* From [PSPICE NETLIST] section of C:\SPB_Data\cdssetup\OrCAD_PSpice/16.6.0/PSpice.ini file:
.lib "nomd.lib" 

*Analysis directives: 
.TRAN  0 25ns 0 
.OPTIONS ADVCONV
.PROBE64 V(alias(*)) I(alias(*)) W(alias(*)) D(alias(*)) NOISE(alias(*)) 
.INC "..\Fig2_19.net" 



**** INCLUDING Fig2_19.net ****
* source FIG2_19
V_Vin         VIN 0  
+PULSE 10 -10 10n 0.1n 0.1n 20n 40n
D_D1         VD 0 Dtrr 
R_R1         VIN VD  1k TC=0,0 

**** RESUMING diode.cir ****
.END

**** 06/29/13 10:50:42 ****** PSpice Lite (October 2012) ****** ID# 10813 ****

 ** Profile: "Fig2_19-diode"  [ C:\Users\jbaker\Desktop\PSpice_CMOSedu\Chap2_PSpice\Fig2_19\Fig2_19-pspicefiles\Fig2_19\diode.sim ] 


 ****     Diode MODEL PARAMETERS


******************************************************************************




               Dtrr            
          IS    1.000000E-15 
          TT   10.000000E-09 
         CJO    1.000000E-12 
          VJ     .7          
           M     .33         


**** 06/29/13 10:50:42 ****** PSpice Lite (October 2012) ****** ID# 10813 ****

 ** Profile: "Fig2_19-diode"  [ C:\Users\jbaker\Desktop\PSpice_CMOSedu\Chap2_PSpice\Fig2_19\Fig2_19-pspicefiles\Fig2_19\diode.sim ] 


 ****     INITIAL TRANSIENT SOLUTION       TEMPERATURE =   27.000 DEG C


******************************************************************************



 NODE   VOLTAGE     NODE   VOLTAGE     NODE   VOLTAGE     NODE   VOLTAGE


(   VD)     .7721  (  VIN)   10.0000  




    VOLTAGE SOURCE CURRENTS
    NAME         CURRENT

    V_Vin       -9.228E-03

    TOTAL POWER DISSIPATION   9.23E-02  WATTS



          JOB CONCLUDED

**** 06/29/13 10:50:42 ****** PSpice Lite (October 2012) ****** ID# 10813 ****

 ** Profile: "Fig2_19-diode"  [ C:\Users\jbaker\Desktop\PSpice_CMOSedu\Chap2_PSpice\Fig2_19\Fig2_19-pspicefiles\Fig2_19\diode.sim ] 


 ****     JOB STATISTICS SUMMARY


******************************************************************************



  Total job time (using Solver 1)   =         .02
