
**** 06/29/13 10:08:29 ****** PSpice Lite (October 2012) ****** ID# 10813 ****

 ** Profile: "Fig 1_10-op"  [ C:\Users\jbaker\Desktop\PSpice_CMOSedu\Chap1_PSpice\Fig1_10\fig1_10-pspicefiles\fig 1_10\op.sim ] 


 ****     CIRCUIT DESCRIPTION


******************************************************************************




** Creating circuit file "op.cir" 
** WARNING: THIS AUTOMATICALLY GENERATED FILE MAY BE OVERWRITTEN BY SUBSEQUENT SIMULATIONS

*Libraries: 
* Profile Libraries :
* Local Libraries :
* From [PSPICE NETLIST] section of C:\SPB_Data\cdssetup\OrCAD_PSpice/16.6.0/PSpice.ini file:
.lib "nomd.lib" 

*Analysis directives: 
.OP
.OPTIONS ADVCONV
.PROBE64 V(alias(*)) I(alias(*)) W(alias(*)) D(alias(*)) NOISE(alias(*)) 
.INC "..\Fig 1_10.net" 



**** INCLUDING "Fig 1_10.net" ****
* source FIG1_10
R_R1         1 2  1k TC=0,0 
R_R2         0 2  2k TC=0,0 
V_Vin         1 0 DC 1  

**** RESUMING op.cir ****
.END

**** 06/29/13 10:08:29 ****** PSpice Lite (October 2012) ****** ID# 10813 ****

 ** Profile: "Fig 1_10-op"  [ C:\Users\jbaker\Desktop\PSpice_CMOSedu\Chap1_PSpice\Fig1_10\fig1_10-pspicefiles\fig 1_10\op.sim ] 


 ****     SMALL SIGNAL BIAS SOLUTION       TEMPERATURE =   27.000 DEG C


******************************************************************************



 NODE   VOLTAGE     NODE   VOLTAGE     NODE   VOLTAGE     NODE   VOLTAGE


(    1)    1.0000  (    2)     .6667  




    VOLTAGE SOURCE CURRENTS
    NAME         CURRENT

    V_Vin       -3.333E-04

    TOTAL POWER DISSIPATION   3.33E-04  WATTS


**** 06/29/13 10:08:29 ****** PSpice Lite (October 2012) ****** ID# 10813 ****

 ** Profile: "Fig 1_10-op"  [ C:\Users\jbaker\Desktop\PSpice_CMOSedu\Chap1_PSpice\Fig1_10\fig1_10-pspicefiles\fig 1_10\op.sim ] 


 ****     OPERATING POINT INFORMATION      TEMPERATURE =   27.000 DEG C


******************************************************************************





          JOB CONCLUDED

**** 06/29/13 10:08:29 ****** PSpice Lite (October 2012) ****** ID# 10813 ****

 ** Profile: "Fig 1_10-op"  [ C:\Users\jbaker\Desktop\PSpice_CMOSedu\Chap1_PSpice\Fig1_10\fig1_10-pspicefiles\fig 1_10\op.sim ] 


 ****     JOB STATISTICS SUMMARY


******************************************************************************



  Total job time (using Solver 1)   =        0.00
