
**** 06/29/13 10:32:52 ****** PSpice Lite (October 2012) ****** ID# 10813 ****

 ** Profile: "Fig1_15-tf"  [ C:\Users\jbaker\Desktop\PSpice_CMOSedu\Chap1_PSpice\Fig1_15\Fig1_15-pspicefiles\Fig1_15\tf.sim ] 


 ****     CIRCUIT DESCRIPTION


******************************************************************************




** Creating circuit file "tf.cir" 
** WARNING: THIS AUTOMATICALLY GENERATED FILE MAY BE OVERWRITTEN BY SUBSEQUENT SIMULATIONS

*Libraries: 
* Profile Libraries :
* Local Libraries :
* From [PSPICE NETLIST] section of C:\SPB_Data\cdssetup\OrCAD_PSpice/16.6.0/PSpice.ini file:
.lib "nomd.lib" 

*Analysis directives: 
.TF V([VOUT]) V_Vin
.OPTIONS ADVCONV
.PROBE64 V(alias(*)) I(alias(*)) W(alias(*)) D(alias(*)) NOISE(alias(*)) 
.INC "..\Fig1_15.net" 



**** INCLUDING Fig1_15.net ****
* source FIG1_15
G_U2_G1         VOUT 0 VM 0 1MEG
R_U2_R1         0 VOUT  1 TC=0,0 
V_Vin         VIN 0 DC 1  
R_Rin         VIN VM  1k TC=0,0 
R_Rf         VM VOUT  3k TC=0,0 

**** RESUMING tf.cir ****
.END

**** 06/29/13 10:32:52 ****** PSpice Lite (October 2012) ****** ID# 10813 ****

 ** Profile: "Fig1_15-tf"  [ C:\Users\jbaker\Desktop\PSpice_CMOSedu\Chap1_PSpice\Fig1_15\Fig1_15-pspicefiles\Fig1_15\tf.sim ] 


 ****     SMALL SIGNAL BIAS SOLUTION       TEMPERATURE =   27.000 DEG C


******************************************************************************



 NODE   VOLTAGE     NODE   VOLTAGE     NODE   VOLTAGE     NODE   VOLTAGE


(   VM) 3.001E-06  (  VIN)    1.0000  ( VOUT)   -3.0000  




    VOLTAGE SOURCE CURRENTS
    NAME         CURRENT

    V_Vin       -1.000E-03

    TOTAL POWER DISSIPATION   1.00E-03  WATTS






 ****     SMALL-SIGNAL CHARACTERISTICS


      V(VOUT)/V_Vin = -3.000E+00

      INPUT RESISTANCE AT V_Vin =  1.000E+03

      OUTPUT RESISTANCE AT V(VOUT) =  4.000E-06


          JOB CONCLUDED

**** 06/29/13 10:32:52 ****** PSpice Lite (October 2012) ****** ID# 10813 ****

 ** Profile: "Fig1_15-tf"  [ C:\Users\jbaker\Desktop\PSpice_CMOSedu\Chap1_PSpice\Fig1_15\Fig1_15-pspicefiles\Fig1_15\tf.sim ] 


 ****     JOB STATISTICS SUMMARY


******************************************************************************



  Total job time (using Solver 1)   =        0.00
