
**** 06/29/13 11:03:45 ****** PSpice Lite (October 2012) ****** ID# 10813 ****

 ** Profile: "Ex8_12-noise"  [ C:\Users\jbaker\Desktop\PSpice_CMOSedu\Chap8_PSpice\Ex8_12\Ex8_12-pspicefiles\Ex8_12\noise.sim ] 


 ****     CIRCUIT DESCRIPTION


******************************************************************************




** Creating circuit file "noise.cir" 
** WARNING: THIS AUTOMATICALLY GENERATED FILE MAY BE OVERWRITTEN BY SUBSEQUENT SIMULATIONS

*Libraries: 
* Profile Libraries :
* Local Libraries :
.LIB "../../../Ex8_12-pspicefiles/Ex8_12.lib" 
* From [PSPICE NETLIST] section of C:\SPB_Data\cdssetup\OrCAD_PSpice/16.6.0/PSpice.ini file:
.lib "nomd.lib" 

*Analysis directives: 
.AC DEC 100 1 100G
.NOISE V([VOUT],[0]) V_Vs 
.OPTIONS ADVCONV
.PROBE64 V(alias(*)) I(alias(*)) W(alias(*)) D(alias(*)) NOISE(alias(*)) 
.INC "..\Ex8_12.net" 



**** INCLUDING Ex8_12.net ****
* source EX8_12
V_Vs         VS 0 DC 1.7  
R_Rs         VOUT VS  1k TC=0,0 
D_D1         VOUT 0 Diode 

**** RESUMING noise.cir ****
.END

**** 06/29/13 11:03:45 ****** PSpice Lite (October 2012) ****** ID# 10813 ****

 ** Profile: "Ex8_12-noise"  [ C:\Users\jbaker\Desktop\PSpice_CMOSedu\Chap8_PSpice\Ex8_12\Ex8_12-pspicefiles\Ex8_12\noise.sim ] 


 ****     Diode MODEL PARAMETERS


******************************************************************************




               Diode           
          IS   10.000000E-15 
          TT   10.000000E-09 


**** 06/29/13 11:03:45 ****** PSpice Lite (October 2012) ****** ID# 10813 ****

 ** Profile: "Ex8_12-noise"  [ C:\Users\jbaker\Desktop\PSpice_CMOSedu\Chap8_PSpice\Ex8_12\Ex8_12-pspicefiles\Ex8_12\noise.sim ] 


 ****     SMALL SIGNAL BIAS SOLUTION       TEMPERATURE =   27.000 DEG C


******************************************************************************



 NODE   VOLTAGE     NODE   VOLTAGE     NODE   VOLTAGE     NODE   VOLTAGE


(   VS)    1.7000  ( VOUT)     .6562  




    VOLTAGE SOURCE CURRENTS
    NAME         CURRENT

    V_Vs        -1.044E-03

    TOTAL POWER DISSIPATION   1.77E-03  WATTS



          JOB CONCLUDED

**** 06/29/13 11:03:45 ****** PSpice Lite (October 2012) ****** ID# 10813 ****

 ** Profile: "Ex8_12-noise"  [ C:\Users\jbaker\Desktop\PSpice_CMOSedu\Chap8_PSpice\Ex8_12\Ex8_12-pspicefiles\Ex8_12\noise.sim ] 


 ****     JOB STATISTICS SUMMARY


******************************************************************************



  Total job time (using Solver 1)   =         .05
