
**** 06/29/13 10:12:08 ****** PSpice Lite (October 2012) ****** ID# 10813 ****

 ** Profile: "Fig1_12-tf"  [ C:\Users\jbaker\Desktop\PSpice_CMOSedu\Chap1_PSpice\Fig1_12\Fig1_12-pspicefiles\Fig1_12\tf.sim ] 


 ****     CIRCUIT DESCRIPTION


******************************************************************************




** Creating circuit file "tf.cir" 
** WARNING: THIS AUTOMATICALLY GENERATED FILE MAY BE OVERWRITTEN BY SUBSEQUENT SIMULATIONS

*Libraries: 
* Profile Libraries :
* Local Libraries :
* From [PSPICE NETLIST] section of C:\SPB_Data\cdssetup\OrCAD_PSpice/16.6.0/PSpice.ini file:
.lib "nomd.lib" 

*Analysis directives: 
.TF I(V_Vmeas) V_Vin
.OPTIONS ADVCONV
.PROBE64 V(alias(*)) I(alias(*)) W(alias(*)) D(alias(*)) NOISE(alias(*)) 
.INC "..\Fig1_12.net" 



**** INCLUDING Fig1_12.net ****
* source FIG1_12
V_Vin         VIN 0 DC 1  
V_Vmeas         N00151 0 DC 0V  
R_R1         VIN VOUT  1k TC=0,0 
R_R2         N00151 VOUT  2k TC=0,0 

**** RESUMING tf.cir ****
.END

**** 06/29/13 10:12:08 ****** PSpice Lite (October 2012) ****** ID# 10813 ****

 ** Profile: "Fig1_12-tf"  [ C:\Users\jbaker\Desktop\PSpice_CMOSedu\Chap1_PSpice\Fig1_12\Fig1_12-pspicefiles\Fig1_12\tf.sim ] 


 ****     SMALL SIGNAL BIAS SOLUTION       TEMPERATURE =   27.000 DEG C


******************************************************************************



 NODE   VOLTAGE     NODE   VOLTAGE     NODE   VOLTAGE     NODE   VOLTAGE


(  VIN)    1.0000  ( VOUT)     .6667  (N00151)    0.0000 




    VOLTAGE SOURCE CURRENTS
    NAME         CURRENT

    V_Vin       -3.333E-04
    V_Vmeas      3.333E-04

    TOTAL POWER DISSIPATION   3.33E-04  WATTS






 ****     SMALL-SIGNAL CHARACTERISTICS


      I(V_Vmeas)/V_Vin =  3.333E-04

      INPUT RESISTANCE AT V_Vin =  3.000E+03

      OUTPUT RESISTANCE AT I(V_Vmeas) =  3.000E+03


          JOB CONCLUDED

**** 06/29/13 10:12:08 ****** PSpice Lite (October 2012) ****** ID# 10813 ****

 ** Profile: "Fig1_12-tf"  [ C:\Users\jbaker\Desktop\PSpice_CMOSedu\Chap1_PSpice\Fig1_12\Fig1_12-pspicefiles\Fig1_12\tf.sim ] 


 ****     JOB STATISTICS SUMMARY


******************************************************************************



  Total job time (using Solver 1)   =        0.00
