
**** 07/03/13 17:11:23 ***** PSpice 16.6.0 (October 2012) ***** ID# 0 ********

 ** Profile: "_Fig3_7_MSD-_Fig3_7_MSD"  [ C:\Users\jbaker\Desktop\Ch3_MSD_PSpice\_fig3_7_msd-pspicefiles\_fig3_7_msd\_fig3_7_msd.sim 


 ****     CIRCUIT DESCRIPTION


******************************************************************************




** Creating circuit file "_Fig3_7_MSD.cir" 
** WARNING: THIS AUTOMATICALLY GENERATED FILE MAY BE OVERWRITTEN BY SUBSEQUENT SIMULATIONS

*Libraries: 
* Profile Libraries :
* Local Libraries :
* From [PSPICE NETLIST] section of C:\SPB_Data\cdssetup\OrCAD_PSpice/16.6.0/PSpice.ini file:
.lib "nom.lib" 

*Analysis directives: 
.AC DEC 100 10k 100meg
.OPTIONS ADVCONV
.PROBE64 V(alias(*)) I(alias(*)) W(alias(*)) D(alias(*)) NOISE(alias(*)) 
.INC "..\_Fig3_7_MSD.net" 



**** INCLUDING _Fig3_7_MSD.net ****
* source _FIG3_7_MSD
V_Vinm         VINM 0 DC .5Vdc AC -.5Vac 
R_RIT         VINP N01314  1k TC=0,0 
V_VCM         VCM 0 DC .5  
R_RIB         VINM N01298  1k TC=0,0 
R_RFB         VOUTP N01298  10k TC=0,0 
R_RFT         VOUTM N01314  10k TC=0,0 
V_Vinp         VINP 0 DC .5Vdc AC .5Vac 
R_U1_RT         U1_N02287 VOUTM  1 TC=0,0 
G_U1_G1         VOUTM U1_N02275 N01298 N01314 100Meg
R_U1_RB         VOUTP U1_N02287  1 TC=0,0 
G_U1_G2         U1_N02275 VOUTP N01298 N01314 100Meg
R_U1_R3         U1_N02287 U1_N02291  .0001 TC=0,0 
G_U1_G3         U1_N02291 0 VCM U1_N02461 100Meg
R_U1_R4         U1_N02287 U1_N02461  .0001 TC=0,0 
R_U1_R5         U1_N02275 U1_N02287  .0001 TC=0,0 
C_C1         N01314 VOUTM  10p  TC=0,0 
C_C2         N01298 VOUTP  10p  TC=0,0 

**** RESUMING _Fig3_7_MSD.cir ****
.END

**** 07/03/13 17:11:23 ***** PSpice 16.6.0 (October 2012) ***** ID# 0 ********

 ** Profile: "_Fig3_7_MSD-_Fig3_7_MSD"  [ C:\Users\jbaker\Desktop\Ch3_MSD_PSpice\_fig3_7_msd-pspicefiles\_fig3_7_msd\_fig3_7_msd.sim 


 ****     SMALL SIGNAL BIAS SOLUTION       TEMPERATURE =   27.000 DEG C


******************************************************************************



 NODE   VOLTAGE     NODE   VOLTAGE     NODE   VOLTAGE     NODE   VOLTAGE


(  VCM)     .5000  ( VINM)     .5000  ( VINP)     .5000  (VOUTM)     .5000      

(VOUTP)     .5000  (N01298)     .5000 (N01314)     .5000 (U1_N02275)     .5000  

(U1_N02287)     .5000                 (U1_N02291)     .5000                     

(U1_N02461)     .5000                 




    VOLTAGE SOURCE CURRENTS
    NAME         CURRENT

    V_Vinm       4.393E-13
    V_VCM        0.000E+00
    V_Vinp       4.393E-13

    TOTAL POWER DISSIPATION  -4.39E-13  WATTS



          JOB CONCLUDED

**** 07/03/13 17:11:23 ***** PSpice 16.6.0 (October 2012) ***** ID# 0 ********

 ** Profile: "_Fig3_7_MSD-_Fig3_7_MSD"  [ C:\Users\jbaker\Desktop\Ch3_MSD_PSpice\_fig3_7_msd-pspicefiles\_fig3_7_msd\_fig3_7_msd.sim 


 ****     JOB STATISTICS SUMMARY


******************************************************************************



  Total job time (using Solver 1)   =         .02
