
**** 06/12/13 19:17:06 ******* PSpice 16.3.0 (June 2009) ****** ID# 0 ********

 ** Profile: "SCHEMATIC1-_Fig3_5_MSD"  [ C:\Users\HomePC\Documents\Spring 2013\PSpice_CMOSedu\MSD\Ch3_MSD_Pspice\_Fig3_5_MSD\_fig3_5_


 ****     CIRCUIT DESCRIPTION


******************************************************************************




** Creating circuit file "_Fig3_5_MSD.cir" 
** WARNING: THIS AUTOMATICALLY GENERATED FILE MAY BE OVERWRITTEN BY SUBSEQUENT SIMULATIONS

*Libraries: 
* Profile Libraries :
* Local Libraries :
* From [PSPICE NETLIST] section of C:\Cadence\SPB_16.3\tools\PSpice\PSpice.ini file:
.lib "nom.lib" 

*Analysis directives: 
.AC DEC 100 10k 100meg
.PROBE V(alias(*)) I(alias(*)) W(alias(*)) D(alias(*)) NOISE(alias(*)) 
.INC "..\SCHEMATIC1.net" 



**** INCLUDING SCHEMATIC1.net ****
* source _FIG3_5_MSD
V_VCM         VCM 0 DC .5  
V_Vinp         VINP 0 DC .5Vdc AC .5Vac 
V_Vinm         VINM 0 DC .5Vdc AC -.5Vac 
R_RFB         VOUTP N00263  10k TC=0,0 
R_RFT         VOUTM N00284  10k TC=0,0 
R_RIT         VINP N00284  10k TC=0,0 
R_U1_R3         U1_N00417 U1_N00447  .0001 TC=0,0 
R_U1_RT         U1_N00417 VOUTM  1 TC=0,0 
R_U1_RB         VOUTP U1_N00417  1 TC=0,0 
R_U1_R4         U1_N00417 U1_N01744  .0001 TC=0,0 
G_U1_G1         VOUTM U1_N00405 N00263 N00284 100Meg
G_U1_G2         U1_N00405 VOUTP N00263 N00284 100Meg
R_U1_R5         U1_N00405 U1_N00417  .0001 TC=0,0 
G_U1_G3         U1_N00447 0 VCM U1_N01744 100Meg
R_RIB         VINM N00263  10k TC=0,0 
C_C1         N00284 VOUTM  10p  TC=0,0 
C_C2         N00263 VOUTP  10p  TC=0,0 

**** RESUMING _Fig3_5_MSD.cir ****
.END

**** 06/12/13 19:17:06 ******* PSpice 16.3.0 (June 2009) ****** ID# 0 ********

 ** Profile: "SCHEMATIC1-_Fig3_5_MSD"  [ C:\Users\HomePC\Documents\Spring 2013\PSpice_CMOSedu\MSD\Ch3_MSD_Pspice\_Fig3_5_MSD\_fig3_5_


 ****     SMALL SIGNAL BIAS SOLUTION       TEMPERATURE =   27.000 DEG C


******************************************************************************



 NODE   VOLTAGE     NODE   VOLTAGE     NODE   VOLTAGE     NODE   VOLTAGE


(  VCM)     .5000  ( VINM)     .5000  ( VINP)     .5000  (VOUTM)     .5000      

(VOUTP)     .5000  (N00263)     .5000 (N00284)     .5000 (U1_N00405)     .5000  

(U1_N00417)     .5000                 (U1_N00447)     .5000                     

(U1_N01744)     .5000                 




    VOLTAGE SOURCE CURRENTS
    NAME         CURRENT

    V_VCM        0.000E+00
    V_Vinp      -5.972E-14
    V_Vinm      -5.972E-14

    TOTAL POWER DISSIPATION   5.97E-14  WATTS



          JOB CONCLUDED

**** 06/12/13 19:17:06 ******* PSpice 16.3.0 (June 2009) ****** ID# 0 ********

 ** Profile: "SCHEMATIC1-_Fig3_5_MSD"  [ C:\Users\HomePC\Documents\Spring 2013\PSpice_CMOSedu\MSD\Ch3_MSD_Pspice\_Fig3_5_MSD\_fig3_5_


 ****     JOB STATISTICS SUMMARY


******************************************************************************



  Total job time (using Solver 1)   =         .03
