
**** 06/12/13 19:32:38 ******* PSpice 16.3.0 (June 2009) ****** ID# 0 ********

 ** Profile: "SCHEMATIC1-_Fig3_9_MSD"  [ C:\Users\HomePC\Documents\Spring 2013\PSpice_CMOSedu\MSD\Ch3_MSD_Pspice\_Fig3_9_MSD\_fig3_9_


 ****     CIRCUIT DESCRIPTION


******************************************************************************




** Creating circuit file "_Fig3_9_MSD.cir" 
** WARNING: THIS AUTOMATICALLY GENERATED FILE MAY BE OVERWRITTEN BY SUBSEQUENT SIMULATIONS

*Libraries: 
* Profile Libraries :
* Local Libraries :
* From [PSPICE NETLIST] section of C:\Cadence\SPB_16.3\tools\PSpice\PSpice.ini file:
.lib "nom.lib" 

*Analysis directives: 
.AC DEC 100 10k 100meg
.PROBE V(alias(*)) I(alias(*)) W(alias(*)) D(alias(*)) NOISE(alias(*)) 
.INC "..\SCHEMATIC1.net" 



**** INCLUDING SCHEMATIC1.net ****
* source _FIG3_9_MSD
R_RFT         VOUTM N01314  10k TC=0,0 
R_RIB         VINM N01298  10k TC=0,0 
R_RIT         VINP N01314  10k TC=0,0 
R_RFB         VOUTP N01298  10k TC=0,0 
V_Vinp         VINP 0 DC .5Vdc AC .5Vac 
V_Vinm         VINM 0 DC .5Vdc AC -.5Vac 
C_C1         N01314 VOUTM  10p  TC=0,0 
C_C2         N01298 VOUTP  10p  TC=0,0 
V_VCM         VCM 0 DC .5  
C_U1_C2         U1_N00326 0  159n  TC=0,0 
E_U1_E4         VOUTM 0 U1_N00253 0 1
C_U1_C1         0 U1_N00253  159n  TC=0,0 
E_U1_E2         U1_N00270 U1_N00262 N01298 N01314 1e4
R_U1_R2         U1_N00262 U1_N00326  1k TC=0,0 
R_U1_R1         U1_N00266 U1_N00253  1k TC=0,0 
E_U1_E5         VOUTP 0 U1_N00326 0 1
E_U1_E3         U1_N00270 0 VCM 0 1
E_U1_E1         U1_N00266 U1_N00270 N01298 N01314 1e4

**** RESUMING _Fig3_9_MSD.cir ****
.END

**** 06/12/13 19:32:38 ******* PSpice 16.3.0 (June 2009) ****** ID# 0 ********

 ** Profile: "SCHEMATIC1-_Fig3_9_MSD"  [ C:\Users\HomePC\Documents\Spring 2013\PSpice_CMOSedu\MSD\Ch3_MSD_Pspice\_Fig3_9_MSD\_fig3_9_


 ****     SMALL SIGNAL BIAS SOLUTION       TEMPERATURE =   27.000 DEG C


******************************************************************************



 NODE   VOLTAGE     NODE   VOLTAGE     NODE   VOLTAGE     NODE   VOLTAGE


(  VCM)     .5000  ( VINM)     .5000  ( VINP)     .5000  (VOUTM)     .5000      

(VOUTP)     .5000  (N01298)     .5000 (N01314)     .5000 (U1_N00253)     .5000  

(U1_N00262)     .5000                 (U1_N00266)     .5000                     

(U1_N00270)     .5000                 (U1_N00326)     .5000                 




    VOLTAGE SOURCE CURRENTS
    NAME         CURRENT

    V_Vinp       5.448E-18
    V_Vinm       5.448E-18
    V_VCM        0.000E+00

    TOTAL POWER DISSIPATION  -5.45E-18  WATTS



          JOB CONCLUDED

**** 06/12/13 19:32:38 ******* PSpice 16.3.0 (June 2009) ****** ID# 0 ********

 ** Profile: "SCHEMATIC1-_Fig3_9_MSD"  [ C:\Users\HomePC\Documents\Spring 2013\PSpice_CMOSedu\MSD\Ch3_MSD_Pspice\_Fig3_9_MSD\_fig3_9_


 ****     JOB STATISTICS SUMMARY


******************************************************************************



  Total job time (using Solver 1)   =         .03
