
**** 07/03/13 17:18:22 ***** PSpice 16.6.0 (October 2012) ***** ID# 0 ********

 ** Profile: "_Fig3_38_MSD-_Fig3_38_MSD"  [ C:\Users\jbaker\Desktop\Ch3_MSD_PSpice\_fig3_38_msd-pspicefiles\_fig3_38_msd\_fig3_38_msd


 ****     CIRCUIT DESCRIPTION


******************************************************************************




** Creating circuit file "_Fig3_38_MSD.cir" 
** WARNING: THIS AUTOMATICALLY GENERATED FILE MAY BE OVERWRITTEN BY SUBSEQUENT SIMULATIONS

*Libraries: 
* Profile Libraries :
* Local Libraries :
* From [PSPICE NETLIST] section of C:\SPB_Data\cdssetup\OrCAD_PSpice/16.6.0/PSpice.ini file:
.lib "nom.lib" 

*Analysis directives: 
.AC DEC 100 1k 100meg
.OPTIONS ADVCONV
.PROBE64 V(alias(*)) I(alias(*)) W(alias(*)) D(alias(*)) NOISE(alias(*)) 
.INC "..\_Fig3_38_MSD.net" 



**** INCLUDING _Fig3_38_MSD.net ****
* source _FIG3_38_MSD
R_RFT1         VOUTM1 N01314  7.07k TC=0,0 
R_RIB1         VINM N01298  10k TC=0,0 
R_RFB1         VOUTP1 N01298  7.07k TC=0,0 
R_RIT1         VINP N01314  10k TC=0,0 
C_CFB2         N02091 VOUTM  10p  TC=0,0 
C_CFT2         N02107 VOUTP  10p  TC=0,0 
R_RIB2         VOUTP1 N02091  10k TC=0,0 
R_RIT2         VOUTM1 N02107  10k TC=0,0 
R_RFB2         N01298 VOUTP  10k TC=0,0 
C_CIB1         VINM N01298  1e-18  TC=0,0 
C_CIT2         VOUTM1 N02107  1e-18  TC=0,0 
V_Vinp         VINP 0 DC .5Vdc AC .5Vac 
R_RFT2         N01314 VOUTM  10k TC=0,0 
C_CIB2         VOUTP1 N02091  1e-18  TC=0,0 
V_Vinm         VINM 0 DC .5Vdc AC -.5Vac 
C_CFT1         N01314 VOUTM1  10p  TC=0,0 
C_CFB1         N01298 VOUTP1  10p  TC=0,0 
C_CIT1         VINP N01314  1e-18  TC=0,0 
V_VCM         VCM 0 DC .5  
R_U1_RT         U1_N02287 VOUTM1  1 TC=0,0 
G_U1_G1         VOUTM1 U1_N02275 N01298 N01314 100Meg
R_U1_RB         VOUTP1 U1_N02287  1 TC=0,0 
G_U1_G2         U1_N02275 VOUTP1 N01298 N01314 100Meg
R_U1_R3         U1_N02287 U1_N02291  .0001 TC=0,0 
G_U1_G3         U1_N02291 0 VCM U1_N02461 100Meg
R_U1_R4         U1_N02287 U1_N02461  .0001 TC=0,0 
R_U1_R5         U1_N02275 U1_N02287  .0001 TC=0,0 
R_U2_RT         U2_N02287 VOUTP  1 TC=0,0 
G_U2_G1         VOUTP U2_N02275 N02091 N02107 100Meg
R_U2_RB         VOUTM U2_N02287  1 TC=0,0 
G_U2_G2         U2_N02275 VOUTM N02091 N02107 100Meg
R_U2_R3         U2_N02287 U2_N02291  .0001 TC=0,0 
G_U2_G3         U2_N02291 0 VCM U2_N02461 100Meg
R_U2_R4         U2_N02287 U2_N02461  .0001 TC=0,0 
R_U2_R5         U2_N02275 U2_N02287  .0001 TC=0,0 

**** RESUMING _Fig3_38_MSD.cir ****
.END

**** 07/03/13 17:18:22 ***** PSpice 16.6.0 (October 2012) ***** ID# 0 ********

 ** Profile: "_Fig3_38_MSD-_Fig3_38_MSD"  [ C:\Users\jbaker\Desktop\Ch3_MSD_PSpice\_fig3_38_msd-pspicefiles\_fig3_38_msd\_fig3_38_msd


 ****     SMALL SIGNAL BIAS SOLUTION       TEMPERATURE =   27.000 DEG C


******************************************************************************



 NODE   VOLTAGE     NODE   VOLTAGE     NODE   VOLTAGE     NODE   VOLTAGE


(  VCM)     .5000  ( VINM)     .5000  ( VINP)     .5000  (VOUTM)     .5000      

(VOUTP)     .5000  (N01298)     .5000 (N01314)     .5000 (N02091)     .5000     

(N02107)     .5000 (VOUTM1)     .5000 (VOUTP1)     .5000 (U1_N02275)     .5000  

(U1_N02287)     .5000                 (U1_N02291)     .5000                     

(U1_N02461)     .5000                 (U2_N02275)     .5000                     

(U2_N02287)     .5000                 (U2_N02291)     .5000                     

(U2_N02461)     .5000                 




    VOLTAGE SOURCE CURRENTS
    NAME         CURRENT

    V_Vinp      -1.273E-13
    V_Vinm      -1.273E-13
    V_VCM        0.000E+00

    TOTAL POWER DISSIPATION   1.27E-13  WATTS



          JOB CONCLUDED

**** 07/03/13 17:18:22 ***** PSpice 16.6.0 (October 2012) ***** ID# 0 ********

 ** Profile: "_Fig3_38_MSD-_Fig3_38_MSD"  [ C:\Users\jbaker\Desktop\Ch3_MSD_PSpice\_fig3_38_msd-pspicefiles\_fig3_38_msd\_fig3_38_msd


 ****     JOB STATISTICS SUMMARY


******************************************************************************



  Total job time (using Solver 1)   =         .05
