
**** 07/03/13 17:10:49 ***** PSpice 16.6.0 (October 2012) ***** ID# 0 ********

 ** Profile: "_Fig3_5_MSD-_Fig3_5_MSD"  [ C:\Users\jbaker\Desktop\Ch3_MSD_PSpice\_fig3_5_msd-pspicefiles\_fig3_5_msd\_fig3_5_msd.sim 


 ****     CIRCUIT DESCRIPTION


******************************************************************************




** Creating circuit file "_Fig3_5_MSD.cir" 
** WARNING: THIS AUTOMATICALLY GENERATED FILE MAY BE OVERWRITTEN BY SUBSEQUENT SIMULATIONS

*Libraries: 
* Profile Libraries :
* Local Libraries :
* From [PSPICE NETLIST] section of C:\SPB_Data\cdssetup\OrCAD_PSpice/16.6.0/PSpice.ini file:
.lib "nom.lib" 

*Analysis directives: 
.AC DEC 100 10k 100meg
.OPTIONS ADVCONV
.PROBE64 V(alias(*)) I(alias(*)) W(alias(*)) D(alias(*)) NOISE(alias(*)) 
.INC "..\_Fig3_5_MSD.net" 



**** INCLUDING _Fig3_5_MSD.net ****
* source _FIG3_5_MSD
V_VCM         VCM 0 DC .5  
V_Vinp         VINP 0 DC .5Vdc AC .5Vac 
V_Vinm         VINM 0 DC .5Vdc AC -.5Vac 
R_RFB         VOUTP N00263  10k TC=0,0 
R_RFT         VOUTM N00284  10k TC=0,0 
R_RIT         VINP N00284  10k TC=0,0 
R_U1_RT         U1_N02287 VOUTM  1 TC=0,0 
G_U1_G1         VOUTM U1_N02275 N00263 N00284 100Meg
R_U1_RB         VOUTP U1_N02287  1 TC=0,0 
G_U1_G2         U1_N02275 VOUTP N00263 N00284 100Meg
R_U1_R3         U1_N02287 U1_N02291  .0001 TC=0,0 
G_U1_G3         U1_N02291 0 VCM U1_N02461 100Meg
R_U1_R4         U1_N02287 U1_N02461  .0001 TC=0,0 
R_U1_R5         U1_N02275 U1_N02287  .0001 TC=0,0 
R_RIB         VINM N00263  10k TC=0,0 
C_C1         N00284 VOUTM  10p  TC=0,0 
C_C2         N00263 VOUTP  10p  TC=0,0 

**** RESUMING _Fig3_5_MSD.cir ****
.END

**** 07/03/13 17:10:49 ***** PSpice 16.6.0 (October 2012) ***** ID# 0 ********

 ** Profile: "_Fig3_5_MSD-_Fig3_5_MSD"  [ C:\Users\jbaker\Desktop\Ch3_MSD_PSpice\_fig3_5_msd-pspicefiles\_fig3_5_msd\_fig3_5_msd.sim 


 ****     SMALL SIGNAL BIAS SOLUTION       TEMPERATURE =   27.000 DEG C


******************************************************************************



 NODE   VOLTAGE     NODE   VOLTAGE     NODE   VOLTAGE     NODE   VOLTAGE


(  VCM)     .5000  ( VINM)     .5000  ( VINP)     .5000  (VOUTM)     .5000      

(VOUTP)     .5000  (N00263)     .5000 (N00284)     .5000 (U1_N02275)     .5000  

(U1_N02287)     .5000                 (U1_N02291)     .5000                     

(U1_N02461)     .5000                 




    VOLTAGE SOURCE CURRENTS
    NAME         CURRENT

    V_VCM        0.000E+00
    V_Vinp      -5.972E-14
    V_Vinm      -5.972E-14

    TOTAL POWER DISSIPATION   5.97E-14  WATTS



          JOB CONCLUDED

**** 07/03/13 17:10:49 ***** PSpice 16.6.0 (October 2012) ***** ID# 0 ********

 ** Profile: "_Fig3_5_MSD-_Fig3_5_MSD"  [ C:\Users\jbaker\Desktop\Ch3_MSD_PSpice\_fig3_5_msd-pspicefiles\_fig3_5_msd\_fig3_5_msd.sim 


 ****     JOB STATISTICS SUMMARY


******************************************************************************



  Total job time (using Solver 1)   =         .02
