
**** 06/29/13 10:23:56 ****** PSpice Lite (October 2012) ****** ID# 10813 ****

 ** Profile: "Fig1_31-tran"  [ C:\Users\jbaker\Desktop\PSpice_CMOSedu\Chap1_PSpice\Fig1_31\fig1_31-pspicefiles\fig1_31\tran.sim ] 


 ****     CIRCUIT DESCRIPTION


******************************************************************************




** Creating circuit file "tran.cir" 
** WARNING: THIS AUTOMATICALLY GENERATED FILE MAY BE OVERWRITTEN BY SUBSEQUENT SIMULATIONS

*Libraries: 
* Profile Libraries :
* Local Libraries :
* From [PSPICE NETLIST] section of C:\SPB_Data\cdssetup\OrCAD_PSpice/16.6.0/PSpice.ini file:
.lib "nomd.lib" 

*Analysis directives: 
.TRAN  0 8n 0 100p 
.OPTIONS ADVCONV
.PROBE64 V(alias(*)) I(alias(*)) W(alias(*)) D(alias(*)) NOISE(alias(*)) 
.INC "..\Fig1_31.net" 



**** INCLUDING Fig1_31.net ****
* source FIG1_31
V_Vin         VIN 0 DC 5V AC 0 0
R_R1         N00129 VOUT  1k TC=0,0 
R_R2         0 VOUT  1k TC=0,0 
L_L1         VOUT 0  10uH IC=5m 
X_U1         VIN N00129 Sw_tOpen PARAMS: tOpen=2n ttran=1p Rclosed=0.01
+  Ropen=1Meg

**** RESUMING tran.cir ****
.END

**** 06/29/13 10:23:56 ****** PSpice Lite (October 2012) ****** ID# 10813 ****

 ** Profile: "Fig1_31-tran"  [ C:\Users\jbaker\Desktop\PSpice_CMOSedu\Chap1_PSpice\Fig1_31\fig1_31-pspicefiles\fig1_31\tran.sim ] 


 ****     Voltage Controlled Switch MODEL PARAMETERS


******************************************************************************




               X_U1.Smod       
         RON     .01         
        ROFF    1.000000E+06 
         VON    1            
        VOFF    0            


**** 06/29/13 10:23:56 ****** PSpice Lite (October 2012) ****** ID# 10813 ****

 ** Profile: "Fig1_31-tran"  [ C:\Users\jbaker\Desktop\PSpice_CMOSedu\Chap1_PSpice\Fig1_31\fig1_31-pspicefiles\fig1_31\tran.sim ] 


 ****     INITIAL TRANSIENT SOLUTION       TEMPERATURE =   27.000 DEG C


******************************************************************************



 NODE   VOLTAGE     NODE   VOLTAGE     NODE   VOLTAGE     NODE   VOLTAGE


(  VIN)    5.0000  ( VOUT)-25.00E-06  (N00129)    5.0000 (X_U1.3)    1.0000 




    VOLTAGE SOURCE CURRENTS
    NAME         CURRENT

    V_Vin       -5.000E-03
    X_U1.V1     -1.000E-12

    TOTAL POWER DISSIPATION   2.50E-02  WATTS



          JOB CONCLUDED

**** 06/29/13 10:23:56 ****** PSpice Lite (October 2012) ****** ID# 10813 ****

 ** Profile: "Fig1_31-tran"  [ C:\Users\jbaker\Desktop\PSpice_CMOSedu\Chap1_PSpice\Fig1_31\fig1_31-pspicefiles\fig1_31\tran.sim ] 


 ****     JOB STATISTICS SUMMARY


******************************************************************************



  Total job time (using Solver 1)   =         .02
