
**** 06/29/13 10:25:58 ****** PSpice Lite (October 2012) ****** ID# 10813 ****

 ** Profile: "Fig1_34-tran"  [ C:\Users\jbaker\Desktop\PSpice_CMOSedu\Chap1_PSpice\Fig1_34\Fig1_34-pspicefiles\Fig1_34\tran.sim ] 


 ****     CIRCUIT DESCRIPTION


******************************************************************************




** Creating circuit file "tran.cir" 
** WARNING: THIS AUTOMATICALLY GENERATED FILE MAY BE OVERWRITTEN BY SUBSEQUENT SIMULATIONS

*Libraries: 
* Profile Libraries :
* Local Libraries :
* From [PSPICE NETLIST] section of C:\SPB_Data\cdssetup\OrCAD_PSpice/16.6.0/PSpice.ini file:
.lib "nomd.lib" 

*Analysis directives: 
.TRAN  0 10m 0 
.OPTIONS ADVCONV
.PROBE64 V(alias(*)) I(alias(*)) W(alias(*)) D(alias(*)) NOISE(alias(*)) 
.INC "..\Fig1_34.net" 



**** INCLUDING Fig1_34.net ****
* source FIG1_34
G_U2_G1         VOUT 0 VM 0 1MEG
R_U2_R1         0 VOUT  1 TC=0,0 
R_Rin         VIN VM  1k TC=0,0 
C_Cf         VM VOUT  1u IC=-1 TC=0,0 
V_V1         VIN 0 DC 0 
+PULSE -1 1 0 1u 1u 2m 4m

**** RESUMING tran.cir ****
.END

**** 06/29/13 10:25:58 ****** PSpice Lite (October 2012) ****** ID# 10813 ****

 ** Profile: "Fig1_34-tran"  [ C:\Users\jbaker\Desktop\PSpice_CMOSedu\Chap1_PSpice\Fig1_34\Fig1_34-pspicefiles\Fig1_34\tran.sim ] 


 ****     INITIAL TRANSIENT SOLUTION       TEMPERATURE =   27.000 DEG C


******************************************************************************



 NODE   VOLTAGE     NODE   VOLTAGE     NODE   VOLTAGE     NODE   VOLTAGE


(   VM)-1.001E-06  (  VIN)   -1.0000  ( VOUT)    1.0000  




    VOLTAGE SOURCE CURRENTS
    NAME         CURRENT

    V_V1         1.000E-03

    TOTAL POWER DISSIPATION   1.00E-03  WATTS



          JOB CONCLUDED

**** 06/29/13 10:25:58 ****** PSpice Lite (October 2012) ****** ID# 10813 ****

 ** Profile: "Fig1_34-tran"  [ C:\Users\jbaker\Desktop\PSpice_CMOSedu\Chap1_PSpice\Fig1_34\Fig1_34-pspicefiles\Fig1_34\tran.sim ] 


 ****     JOB STATISTICS SUMMARY


******************************************************************************



  Total job time (using Solver 1)   =         .02
