
**** 07/02/13 15:26:28 ***** PSpice 16.6.0 (October 2012) ***** ID# 0 ********

 ** Profile: "Ex9_5-op"  [ C:\Users\jbaker\Desktop\Chap9_PSpice\Ex9_5\Ex9_5-pspicefiles\Ex9_5\op.sim ] 


 ****     CIRCUIT DESCRIPTION


******************************************************************************




** Creating circuit file "op.cir" 
** WARNING: THIS AUTOMATICALLY GENERATED FILE MAY BE OVERWRITTEN BY SUBSEQUENT SIMULATIONS

*Libraries: 
* Profile Libraries :
* Local Libraries :
.LIB "../../../Ex9_5-pspicefiles/Ex9_5.lib" 
* From [PSPICE NETLIST] section of C:\SPB_Data\cdssetup\OrCAD_PSpice/16.6.0/PSpice.ini file:
.lib "nom.lib" 

*Analysis directives: 
.OP
.OPTIONS ADVCONV
.PROBE64 V(alias(*)) I(alias(*)) W(alias(*)) D(alias(*)) NOISE(alias(*)) 
.INC "..\Ex9_5.net" 



**** INCLUDING Ex9_5.net ****
* source EX9_5
M_M1         VD13 N00488 VS12 0 N_1u  
+ L=2u  
+ W=10u         
M_M2         VD24 N00484 VS12 0 N_1u  
+ L=2u  
+ W=10u         
M_M3         VD13 VD13 VDD VDD P_1u  
+ L=2u  
+ W=30u         
M_M4         VD24 0 VDD VDD P_1u  
+ L=2u  
+ W=30u         
V_VG1         N00488 0 DC 2.5 AC 1m 
V_VG2         N00484 0 DC 2.5  
V_VDD         VDD 0 DC 5  
I_Ibias         VS12 0 DC 40u  

**** RESUMING op.cir ****
.END

**** 07/02/13 15:26:28 ***** PSpice 16.6.0 (October 2012) ***** ID# 0 ********

 ** Profile: "Ex9_5-op"  [ C:\Users\jbaker\Desktop\Chap9_PSpice\Ex9_5\Ex9_5-pspicefiles\Ex9_5\op.sim ] 


 ****     MOSFET MODEL PARAMETERS


******************************************************************************




               N_1u            P_1u            
               NMOS            PMOS            
       LEVEL    3               3            
         TPG                   -1            
           L  100.000000E-06  100.000000E-06 
           W  100.000000E-06  100.000000E-06 
          LD  100.000000E-09  100.000000E-09 
         VTO     .8             -.9          
          KP  120.000000E-06   40.000000E-06 
       GAMMA     .5              .6          
         PHI     .7              .7          
      LAMBDA    0               0            
          IS   10.000000E-15   10.000000E-15 
          JS    0               0            
          PB    1               1            
        PBSW    1               1            
          CJ  400.000000E-06  400.000000E-06 
        CJSW  300.000000E-12  300.000000E-12 
        MJSW     .5              .5          
        CGSO  200.000000E-12  200.000000E-12 
        CGDO  200.000000E-12  200.000000E-12 
        CGBO  100.000000E-12  100.000000E-12 
        NSUB  100.000000E+15  100.000000E+15 
         NFS    1.000000E+12    1.000000E+12 
         TOX   20.000000E-09   20.000000E-09 
          XJ  500.000000E-09  500.000000E-09 
          UO  650             250            
       UCRIT   10.000000E+03   10.000000E+03 
        VMAX  100.000000E+03   50.000000E+03 
       DELTA    3                .1          
       THETA     .1              .1          
         ETA    3.000000E-06    0            
       KAPPA     .3             1            
      DIOMOD    1               1            
         VFB    0               0            
        LETA    0               0            
        WETA    0               0            
          U0    0               0            
        TEMP    0               0            
         VDD    5               5            
       XPART    0               0            


**** 07/02/13 15:26:28 ***** PSpice 16.6.0 (October 2012) ***** ID# 0 ********

 ** Profile: "Ex9_5-op"  [ C:\Users\jbaker\Desktop\Chap9_PSpice\Ex9_5\Ex9_5-pspicefiles\Ex9_5\op.sim ] 


 ****     SMALL SIGNAL BIAS SOLUTION       TEMPERATURE =   27.000 DEG C


******************************************************************************



 NODE   VOLTAGE     NODE   VOLTAGE     NODE   VOLTAGE     NODE   VOLTAGE


(  VDD)    5.0000  ( VD13)    3.8550  ( VD24)    4.9896  ( VS12)    1.1712      

(N00484)    2.5000 (N00488)    2.5000 




    VOLTAGE SOURCE CURRENTS
    NAME         CURRENT

    V_VG1        0.000E+00
    V_VG2        0.000E+00
    V_VDD       -4.000E-05

    TOTAL POWER DISSIPATION   2.00E-04  WATTS


**** 07/02/13 15:26:28 ***** PSpice 16.6.0 (October 2012) ***** ID# 0 ********

 ** Profile: "Ex9_5-op"  [ C:\Users\jbaker\Desktop\Chap9_PSpice\Ex9_5\Ex9_5-pspicefiles\Ex9_5\op.sim ] 


 ****     OPERATING POINT INFORMATION      TEMPERATURE =   27.000 DEG C


******************************************************************************






**** MOSFETS


NAME         M_M1        M_M2        M_M3        M_M4      
MODEL        N_1u        N_1u        P_1u        P_1u      
ID           1.99E-05    2.01E-05   -1.99E-05   -2.01E-05 
VGS          1.33E+00    1.33E+00   -1.15E+00   -5.00E+00 
VDS          2.68E+00    3.82E+00   -1.15E+00   -1.04E-02 
VBS         -1.17E+00   -1.17E+00    0.00E+00    0.00E+00 
VTH          1.12E+00    1.12E+00   -9.30E-01   -9.30E-01 
VDSAT        2.30E-01    2.30E-01   -2.27E-01   -2.43E+00 
Lin0/Sat1   -1.00E+00   -1.00E+00   -1.00E+00   -1.00E+00 
if          -1.00E+00   -1.00E+00   -1.00E+00   -1.00E+00 
ir          -1.00E+00   -1.00E+00   -1.00E+00   -1.00E+00 
TAU         -1.00E+00   -1.00E+00   -1.00E+00   -1.00E+00 
GM           1.43E-04    1.44E-04    1.40E-04    3.46E-06 
GDS          2.10E-07    1.82E-07    2.85E-07    1.93E-03 
GMB          2.63E-05    2.66E-05    4.38E-05    1.58E-06 
CBD          0.00E+00    0.00E+00    0.00E+00    0.00E+00 
CBS          0.00E+00    0.00E+00    0.00E+00    0.00E+00 
CGSOV        2.00E-15    2.00E-15    6.00E-15    6.00E-15 
CGDOV        2.00E-15    2.00E-15    6.00E-15    6.00E-15 
CGBOV        1.80E-16    1.80E-16    1.80E-16    1.80E-16 
CGS          2.07E-14    2.07E-14    6.22E-14    4.66E-14 
CGD          0.00E+00    0.00E+00    0.00E+00    4.66E-14 
CGB          0.00E+00    0.00E+00    0.00E+00    0.00E+00 

          JOB CONCLUDED

**** 07/02/13 15:26:28 ***** PSpice 16.6.0 (October 2012) ***** ID# 0 ********

 ** Profile: "Ex9_5-op"  [ C:\Users\jbaker\Desktop\Chap9_PSpice\Ex9_5\Ex9_5-pspicefiles\Ex9_5\op.sim ] 


 ****     JOB STATISTICS SUMMARY


******************************************************************************



  Total job time (using Solver 1)   =        0.00
