
**** 07/03/13 17:14:52 ***** PSpice 16.6.0 (October 2012) ***** ID# 0 ********

 ** Profile: "_Fig3_18_MSD-_Fig3_18_MSD"  [ C:\Users\jbaker\Desktop\Ch3_MSD_PSpice\_fig3_18_msd-pspicefiles\_fig3_18_msd\_fig3_18_msd


 ****     CIRCUIT DESCRIPTION


******************************************************************************




** Creating circuit file "_Fig3_18_MSD.cir" 
** WARNING: THIS AUTOMATICALLY GENERATED FILE MAY BE OVERWRITTEN BY SUBSEQUENT SIMULATIONS

*Libraries: 
* Profile Libraries :
* Local Libraries :
* From [PSPICE NETLIST] section of C:\SPB_Data\cdssetup\OrCAD_PSpice/16.6.0/PSpice.ini file:
.lib "nom.lib" 

*Analysis directives: 
.AC DEC 100 1k 100meg
.OPTIONS ADVCONV
.PROBE64 V(alias(*)) I(alias(*)) W(alias(*)) D(alias(*)) NOISE(alias(*)) 
.INC "..\_Fig3_18_MSD.net" 



**** INCLUDING _Fig3_18_MSD.net ****
* source _FIG3_18_MSD
V_VCM         VCM 0 DC .5  
C_C1         VOUTP VOUTM  10p  TC=0,0 
V_Vinp         VINP 0 DC .5Vdc AC .5Vac 
R_U1_R1         VOUTM U1_VCMB  1G TC=0,0 
R_U1_R2         U1_VCMB VOUTP  1G TC=0,0 
G_U1_G1         VOUTM VOUTP VINP VINM 100u
E_U1_E1         U1_VCMB 0 VCM 0 1
V_Vinm         VINM 0 DC .5Vdc AC -.5Vac 
R_U2_R1         VOUTP U2_VCMB  1G TC=0,0 
R_U2_R2         U2_VCMB VOUTM  1G TC=0,0 
G_U2_G1         VOUTP VOUTM VOUTP VOUTM 100u
E_U2_E1         U2_VCMB 0 VCM 0 1

**** RESUMING _Fig3_18_MSD.cir ****
.END

**** 07/03/13 17:14:52 ***** PSpice 16.6.0 (October 2012) ***** ID# 0 ********

 ** Profile: "_Fig3_18_MSD-_Fig3_18_MSD"  [ C:\Users\jbaker\Desktop\Ch3_MSD_PSpice\_fig3_18_msd-pspicefiles\_fig3_18_msd\_fig3_18_msd


 ****     SMALL SIGNAL BIAS SOLUTION       TEMPERATURE =   27.000 DEG C


******************************************************************************



 NODE   VOLTAGE     NODE   VOLTAGE     NODE   VOLTAGE     NODE   VOLTAGE


(  VCM)     .5000  ( VINM)     .5000  ( VINP)     .5000  (VOUTM)     .5000      

(VOUTP)     .5000  (U1_VCMB)     .5000                   (U2_VCMB)     .5000    




    VOLTAGE SOURCE CURRENTS
    NAME         CURRENT

    V_VCM        0.000E+00
    V_Vinp       0.000E+00
    V_Vinm       0.000E+00

    TOTAL POWER DISSIPATION   0.00E+00  WATTS



          JOB CONCLUDED

**** 07/03/13 17:14:52 ***** PSpice 16.6.0 (October 2012) ***** ID# 0 ********

 ** Profile: "_Fig3_18_MSD-_Fig3_18_MSD"  [ C:\Users\jbaker\Desktop\Ch3_MSD_PSpice\_fig3_18_msd-pspicefiles\_fig3_18_msd\_fig3_18_msd


 ****     JOB STATISTICS SUMMARY


******************************************************************************



  Total job time (using Solver 1)   =         .02
