
**** 06/29/13 10:11:19 ****** PSpice Lite (October 2012) ****** ID# 10813 ****

 ** Profile: "Fig 1_11-tf"  [ C:\Users\jbaker\Desktop\PSpice_CMOSedu\Chap1_PSpice\Fig1_11\fig1_11-pspicefiles\fig 1_11\tf.sim ] 


 ****     CIRCUIT DESCRIPTION


******************************************************************************




** Creating circuit file "tf.cir" 
** WARNING: THIS AUTOMATICALLY GENERATED FILE MAY BE OVERWRITTEN BY SUBSEQUENT SIMULATIONS

*Libraries: 
* Profile Libraries :
* Local Libraries :
* From [PSPICE NETLIST] section of C:\SPB_Data\cdssetup\OrCAD_PSpice/16.6.0/PSpice.ini file:
.lib "nomd.lib" 

*Analysis directives: 
.OP
.TF V([VOUT]) V_Vin
.OPTIONS ADVCONV
.PROBE64 V(alias(*)) I(alias(*)) W(alias(*)) D(alias(*)) NOISE(alias(*)) 
.INC "..\Fig 1_11.net" 



**** INCLUDING "Fig 1_11.net" ****
* source FIG1_11
R_R1         VIN VOUT  1k TC=0,0 
R_R2         0 VOUT  2k TC=0,0 
V_Vin         VIN 0 DC 1  

**** RESUMING tf.cir ****
.END

**** 06/29/13 10:11:19 ****** PSpice Lite (October 2012) ****** ID# 10813 ****

 ** Profile: "Fig 1_11-tf"  [ C:\Users\jbaker\Desktop\PSpice_CMOSedu\Chap1_PSpice\Fig1_11\fig1_11-pspicefiles\fig 1_11\tf.sim ] 


 ****     SMALL SIGNAL BIAS SOLUTION       TEMPERATURE =   27.000 DEG C


******************************************************************************



 NODE   VOLTAGE     NODE   VOLTAGE     NODE   VOLTAGE     NODE   VOLTAGE


(  VIN)    1.0000  ( VOUT)     .6667  




    VOLTAGE SOURCE CURRENTS
    NAME         CURRENT

    V_Vin       -3.333E-04

    TOTAL POWER DISSIPATION   3.33E-04  WATTS


**** 06/29/13 10:11:19 ****** PSpice Lite (October 2012) ****** ID# 10813 ****

 ** Profile: "Fig 1_11-tf"  [ C:\Users\jbaker\Desktop\PSpice_CMOSedu\Chap1_PSpice\Fig1_11\fig1_11-pspicefiles\fig 1_11\tf.sim ] 


 ****     OPERATING POINT INFORMATION      TEMPERATURE =   27.000 DEG C


******************************************************************************








 ****     SMALL-SIGNAL CHARACTERISTICS


      V(VOUT)/V_Vin =  6.667E-01

      INPUT RESISTANCE AT V_Vin =  3.000E+03

      OUTPUT RESISTANCE AT V(VOUT) =  6.667E+02


          JOB CONCLUDED

**** 06/29/13 10:11:19 ****** PSpice Lite (October 2012) ****** ID# 10813 ****

 ** Profile: "Fig 1_11-tf"  [ C:\Users\jbaker\Desktop\PSpice_CMOSedu\Chap1_PSpice\Fig1_11\fig1_11-pspicefiles\fig 1_11\tf.sim ] 


 ****     JOB STATISTICS SUMMARY


******************************************************************************



  Total job time (using Solver 1)   =        0.00
