
**** 06/29/13 10:12:45 ****** PSpice Lite (October 2012) ****** ID# 10813 ****

 ** Profile: "Fig1_13-tf"  [ C:\Users\jbaker\Desktop\PSpice_CMOSedu\Chap1_PSpice\Fig1_13\fig1_13-pspicefiles\fig1_13\tf.sim ] 


 ****     CIRCUIT DESCRIPTION


******************************************************************************




** Creating circuit file "tf.cir" 
** WARNING: THIS AUTOMATICALLY GENERATED FILE MAY BE OVERWRITTEN BY SUBSEQUENT SIMULATIONS

*Libraries: 
* Profile Libraries :
* Local Libraries :
* From [PSPICE NETLIST] section of C:\SPB_Data\cdssetup\OrCAD_PSpice/16.6.0/PSpice.ini file:
.lib "nomd.lib" 

*Analysis directives: 
.TF V([VOUT]) V_Vin
.OPTIONS ADVCONV
.PROBE64 V(alias(*)) I(alias(*)) W(alias(*)) D(alias(*)) NOISE(alias(*)) 
.INC "..\Fig1_13.net" 



**** INCLUDING Fig1_13.net ****
* source FIG1_13
E_E1         VT VB VIN 0 23
R_R1         VT VOUT  1k TC=0,0 
R_R2         0 VB  3k TC=0,0 
R_R3         0 VOUT  2k TC=0,0 
V_Vin         VIN 0 DC 1V  

**** RESUMING tf.cir ****
.END

**** 06/29/13 10:12:45 ****** PSpice Lite (October 2012) ****** ID# 10813 ****

 ** Profile: "Fig1_13-tf"  [ C:\Users\jbaker\Desktop\PSpice_CMOSedu\Chap1_PSpice\Fig1_13\fig1_13-pspicefiles\fig1_13\tf.sim ] 


 ****     SMALL SIGNAL BIAS SOLUTION       TEMPERATURE =   27.000 DEG C


******************************************************************************



 NODE   VOLTAGE     NODE   VOLTAGE     NODE   VOLTAGE     NODE   VOLTAGE


(   VB)  -11.5000  (   VT)   11.5000  (  VIN)    1.0000  ( VOUT)    7.6667  




    VOLTAGE SOURCE CURRENTS
    NAME         CURRENT

    V_Vin        0.000E+00

    TOTAL POWER DISSIPATION   0.00E+00  WATTS






 ****     SMALL-SIGNAL CHARACTERISTICS


      V(VOUT)/V_Vin =  7.667E+00

      INPUT RESISTANCE AT V_Vin =  1.000E+20

      OUTPUT RESISTANCE AT V(VOUT) =  1.333E+03


          JOB CONCLUDED

**** 06/29/13 10:12:45 ****** PSpice Lite (October 2012) ****** ID# 10813 ****

 ** Profile: "Fig1_13-tf"  [ C:\Users\jbaker\Desktop\PSpice_CMOSedu\Chap1_PSpice\Fig1_13\fig1_13-pspicefiles\fig1_13\tf.sim ] 


 ****     JOB STATISTICS SUMMARY


******************************************************************************



  Total job time (using Solver 1)   =        0.00
